                             astable multivibrator
                             Transient Analysis  Sat Feb  5 01:06:49  2022
--------------------------------------------------------------------------------
Index   time            v(2)            v(5)            
--------------------------------------------------------------------------------
0	0.000000e+00	1.062315e-03	5.050424e-03	
1	1.000000e-07	1.062315e-03	5.050424e-03	
2	2.000000e-07	1.062315e-03	5.050424e-03	
3	4.000000e-07	1.062315e-03	5.050424e-03	
4	8.000000e-07	1.062315e-03	5.050424e-03	
5	1.600000e-06	1.062315e-03	5.050424e-03	
6	3.200000e-06	1.062315e-03	5.050424e-03	
7	6.400000e-06	1.062315e-03	5.050424e-03	
8	1.280000e-05	1.062315e-03	5.050424e-03	
9	2.280000e-05	1.062315e-03	5.050424e-03	
10	3.280000e-05	1.062315e-03	5.050424e-03	
11	4.280000e-05	1.062315e-03	5.050424e-03	
12	5.280000e-05	1.062315e-03	5.050424e-03	
13	6.280000e-05	1.062315e-03	5.050424e-03	
14	7.280000e-05	1.062315e-03	5.050424e-03	
15	8.280000e-05	1.062315e-03	5.050424e-03	
16	9.280000e-05	1.062315e-03	5.050424e-03	
17	1.028000e-04	1.062315e-03	5.050424e-03	
18	1.128000e-04	1.062315e-03	5.050424e-03	
19	1.228000e-04	1.062315e-03	5.050424e-03	
20	1.328000e-04	1.062315e-03	5.050424e-03	
21	1.428000e-04	1.062315e-03	5.050424e-03	
22	1.528000e-04	1.062315e-03	5.050424e-03	
23	1.628000e-04	1.062315e-03	5.050423e-03	
24	1.728000e-04	1.062315e-03	5.050424e-03	
25	1.828000e-04	1.062315e-03	5.050423e-03	
26	1.928000e-04	1.062315e-03	5.050425e-03	
27	2.028000e-04	1.062315e-03	5.050423e-03	
28	2.128000e-04	1.062315e-03	5.050425e-03	
29	2.228000e-04	1.062315e-03	5.050423e-03	
30	2.328000e-04	1.062315e-03	5.050425e-03	
31	2.428000e-04	1.062315e-03	5.050422e-03	
32	2.528000e-04	1.062315e-03	5.050426e-03	
33	2.628000e-04	1.062315e-03	5.050421e-03	
34	2.728000e-04	1.062315e-03	5.050427e-03	
35	2.828000e-04	1.062315e-03	5.050420e-03	
36	2.928000e-04	1.062315e-03	5.050428e-03	
37	3.028000e-04	1.062315e-03	5.050419e-03	
38	3.128000e-04	1.062315e-03	5.050430e-03	
39	3.228000e-04	1.062315e-03	5.050417e-03	
40	3.328000e-04	1.062315e-03	5.050432e-03	
41	3.428000e-04	1.062315e-03	5.050414e-03	
42	3.528000e-04	1.062315e-03	5.050435e-03	
43	3.628000e-04	1.062315e-03	5.050410e-03	
44	3.728000e-04	1.062315e-03	5.050440e-03	
45	3.828000e-04	1.062315e-03	5.050405e-03	
46	3.928000e-04	1.062315e-03	5.050447e-03	
47	4.028000e-04	1.062315e-03	5.050397e-03	
48	4.128000e-04	1.062315e-03	5.050456e-03	
49	4.228000e-04	1.062315e-03	5.050385e-03	
50	4.328000e-04	1.062315e-03	5.050470e-03	
51	4.428000e-04	1.062315e-03	5.050370e-03	
52	4.528000e-04	1.062315e-03	5.050488e-03	
53	4.628000e-04	1.062315e-03	5.050347e-03	
54	4.728000e-04	1.062315e-03	5.050515e-03	

Index   time            v(2)            v(5)            
--------------------------------------------------------------------------------
55	4.828000e-04	1.062315e-03	5.050316e-03	
56	4.928000e-04	1.062315e-03	5.050552e-03	
57	5.028000e-04	1.062314e-03	5.050272e-03	
58	5.128000e-04	1.062315e-03	5.050604e-03	
59	5.228000e-04	1.062314e-03	5.050210e-03	
60	5.328000e-04	1.062315e-03	5.050678e-03	
61	5.428000e-04	1.062314e-03	5.050122e-03	
62	5.528000e-04	1.062315e-03	5.050782e-03	
63	5.628000e-04	1.062314e-03	5.049998e-03	
64	5.728000e-04	1.062315e-03	5.050929e-03	
65	5.828000e-04	1.062314e-03	5.049824e-03	
66	5.928000e-04	1.062315e-03	5.051136e-03	
67	6.028000e-04	1.062314e-03	5.049578e-03	
68	6.128000e-04	1.062315e-03	5.051428e-03	
69	6.228000e-04	1.062314e-03	5.049232e-03	
70	6.328000e-04	1.062316e-03	5.051839e-03	
71	6.428000e-04	1.062313e-03	5.048744e-03	
72	6.528000e-04	1.062316e-03	5.052418e-03	
73	6.628000e-04	1.062313e-03	5.048056e-03	
74	6.728000e-04	1.062317e-03	5.053235e-03	
75	6.828000e-04	1.062312e-03	5.047086e-03	
76	6.928000e-04	1.062318e-03	5.054386e-03	
77	7.028000e-04	1.062310e-03	5.045720e-03	
78	7.128000e-04	1.062319e-03	5.056009e-03	
79	7.228000e-04	1.062309e-03	5.043793e-03	
80	7.328000e-04	1.062321e-03	5.058297e-03	
81	7.428000e-04	1.062306e-03	5.041077e-03	
82	7.528000e-04	1.062324e-03	5.061521e-03	
83	7.628000e-04	1.062303e-03	5.037249e-03	
84	7.728000e-04	1.062328e-03	5.066066e-03	
85	7.828000e-04	1.062298e-03	5.031853e-03	
86	7.928000e-04	1.062334e-03	5.072473e-03	
87	8.028000e-04	1.062292e-03	5.024246e-03	
88	8.128000e-04	1.062342e-03	5.081503e-03	
89	8.228000e-04	1.062282e-03	5.013525e-03	
90	8.328000e-04	1.062353e-03	5.094232e-03	
91	8.428000e-04	1.062269e-03	4.998412e-03	
92	8.525735e-04	1.062369e-03	5.112422e-03	
93	8.616852e-04	1.062249e-03	4.975568e-03	
94	8.687208e-04	1.062398e-03	5.146021e-03	
95	8.730812e-04	1.062190e-03	4.908118e-03	
96	8.753693e-04	1.062588e-03	5.362884e-03	
97	8.761637e-04	1.069584e-03	1.335738e-02	
98	8.765494e-04	1.081483e-03	2.693413e-02	
99	8.767924e-04	1.096626e-03	4.415048e-02	
100	8.770221e-04	1.121552e-03	7.219405e-02	
101	8.772724e-04	1.168998e-03	1.237676e-01	
102	8.775260e-04	1.251323e-03	2.053038e-01	
103	8.777075e-04	1.339029e-03	2.812290e-01	
104	8.779290e-04	1.486067e-03	3.855097e-01	
105	8.781907e-04	1.720746e-03	5.145784e-01	
106	8.784359e-04	2.002141e-03	6.366492e-01	
107	8.787250e-04	2.410586e-03	7.806687e-01	
108	8.792547e-04	3.374410e-03	1.044709e+00	
109	8.803141e-04	6.137725e-03	1.573220e+00	
110	8.824329e-04	1.500277e-02	2.631979e+00	
111	8.866704e-04	4.605274e-02	4.756442e+00	
112	8.951455e-04	1.611657e-01	9.033320e+00	

Index   time            v(2)            v(5)            
--------------------------------------------------------------------------------
113	9.051455e-04	3.872946e-01	1.412802e+01	
114	9.113339e-04	5.592927e-01	1.461200e+01	
115	9.187935e-04	7.674318e-01	1.461677e+01	
116	9.240457e-04	9.121380e-01	1.461475e+01	
117	9.306201e-04	1.091130e+00	1.461413e+01	
118	9.406201e-04	1.358912e+00	1.461408e+01	
119	9.506201e-04	1.621390e+00	1.461406e+01	
120	9.606201e-04	1.878671e+00	1.461406e+01	
121	9.706201e-04	2.130857e+00	1.461406e+01	
122	9.806201e-04	2.378049e+00	1.461406e+01	
123	9.906201e-04	2.620346e+00	1.461406e+01	
124	1.000620e-03	2.857846e+00	1.461406e+01	
125	1.010620e-03	3.090642e+00	1.461406e+01	
126	1.020620e-03	3.318829e+00	1.461406e+01	
127	1.030620e-03	3.542497e+00	1.461406e+01	
128	1.040620e-03	3.761735e+00	1.461406e+01	
129	1.050620e-03	3.976633e+00	1.461406e+01	
130	1.060620e-03	4.187275e+00	1.461406e+01	
131	1.070620e-03	4.393746e+00	1.461406e+01	
132	1.080620e-03	4.596129e+00	1.461406e+01	
133	1.090620e-03	4.794504e+00	1.461406e+01	
134	1.100620e-03	4.988950e+00	1.461406e+01	
135	1.110620e-03	5.179547e+00	1.461406e+01	
136	1.120620e-03	5.366369e+00	1.461406e+01	
137	1.130620e-03	5.549492e+00	1.461406e+01	
138	1.140620e-03	5.728988e+00	1.461406e+01	
139	1.150620e-03	5.904930e+00	1.461406e+01	
140	1.160620e-03	6.077388e+00	1.461406e+01	
141	1.170620e-03	6.246431e+00	1.461406e+01	
142	1.180620e-03	6.412127e+00	1.461406e+01	
143	1.190620e-03	6.574540e+00	1.461392e+01	
144	1.194448e-03	6.635849e+00	1.461311e+01	
145	1.197021e-03	6.676778e+00	1.461056e+01	
146	1.198988e-03	6.707910e+00	1.460540e+01	
147	1.201211e-03	6.742910e+00	1.459128e+01	
148	1.204080e-03	6.786465e+00	1.413437e+01	
149	1.204920e-03	6.798427e+00	1.370332e+01	
150	1.205956e-03	6.812141e+00	1.316719e+01	
151	1.206539e-03	6.819363e+00	1.286734e+01	
152	1.207261e-03	6.827810e+00	1.249409e+01	
153	1.207931e-03	6.835157e+00	1.214853e+01	
154	1.208687e-03	6.842880e+00	1.175802e+01	
155	1.209736e-03	6.852596e+00	1.121676e+01	
156	1.211077e-03	6.863333e+00	1.052472e+01	
157	1.213220e-03	6.876590e+00	9.418750e+00	
158	1.216544e-03	6.887696e+00	7.703077e+00	
159	1.221992e-03	6.881208e+00	4.891545e+00	
160	1.231310e-03	6.799931e+00	8.427558e-02	
161	1.241310e-03	6.615760e+00	-5.06920e+00	
162	1.251310e-03	6.333263e+00	-1.02150e+01	
163	1.261310e-03	5.962275e+00	-1.45718e+01	
164	1.268111e-03	5.684453e+00	-1.46180e+01	
165	1.275682e-03	5.379231e+00	-1.46172e+01	
166	1.281311e-03	5.155293e+00	-1.46141e+01	
167	1.288066e-03	4.889886e+00	-1.46142e+01	
168	1.298066e-03	4.503508e+00	-1.46139e+01	
169	1.308066e-03	4.124785e+00	-1.46138e+01	
170	1.318066e-03	3.753562e+00	-1.46138e+01	

Index   time            v(2)            v(5)            
--------------------------------------------------------------------------------
171	1.328066e-03	3.389692e+00	-1.46137e+01	
172	1.338066e-03	3.033028e+00	-1.46137e+01	
173	1.348066e-03	2.683429e+00	-1.46136e+01	
174	1.358066e-03	2.340753e+00	-1.46136e+01	
175	1.368066e-03	2.004864e+00	-1.46136e+01	
176	1.378066e-03	1.675628e+00	-1.46135e+01	
177	1.388066e-03	1.352912e+00	-1.46135e+01	
178	1.398066e-03	1.036588e+00	-1.46134e+01	
179	1.408066e-03	7.265285e-01	-1.46134e+01	
180	1.418066e-03	4.226102e-01	-1.46133e+01	
181	1.428066e-03	1.247111e-01	-1.46133e+01	
182	1.438066e-03	-1.67288e-01	-1.46132e+01	
183	1.448066e-03	-4.53504e-01	-1.46132e+01	
184	1.458066e-03	-7.34051e-01	-1.46132e+01	
185	1.468066e-03	-1.00904e+00	-1.46131e+01	
186	1.478066e-03	-1.27859e+00	-1.46131e+01	
187	1.488066e-03	-1.54279e+00	-1.46130e+01	
188	1.498066e-03	-1.80177e+00	-1.46130e+01	
189	1.508066e-03	-2.05561e+00	-1.46130e+01	
190	1.518066e-03	-2.30443e+00	-1.46129e+01	
191	1.528066e-03	-2.54831e+00	-1.46129e+01	
192	1.538066e-03	-2.78737e+00	-1.46129e+01	
193	1.548066e-03	-3.02170e+00	-1.46128e+01	
194	1.558066e-03	-3.25138e+00	-1.46128e+01	
195	1.568066e-03	-3.47651e+00	-1.46128e+01	
196	1.578066e-03	-3.69719e+00	-1.46127e+01	
197	1.588066e-03	-3.91349e+00	-1.46127e+01	
198	1.598066e-03	-4.12551e+00	-1.46127e+01	
199	1.608066e-03	-4.33333e+00	-1.46126e+01	
200	1.618066e-03	-4.53704e+00	-1.46126e+01	
201	1.628066e-03	-4.73671e+00	-1.46126e+01	
202	1.638066e-03	-4.93242e+00	-1.46126e+01	
203	1.648066e-03	-5.12426e+00	-1.46125e+01	
204	1.658066e-03	-5.31230e+00	-1.46125e+01	
205	1.668066e-03	-5.49662e+00	-1.46125e+01	
206	1.678066e-03	-5.67728e+00	-1.46125e+01	
207	1.688066e-03	-5.85437e+00	-1.46124e+01	
208	1.698066e-03	-6.02795e+00	-1.46124e+01	
209	1.708066e-03	-6.19809e+00	-1.46124e+01	
210	1.718066e-03	-6.36487e+00	-1.46124e+01	
211	1.728066e-03	-6.52833e+00	-1.46123e+01	
212	1.732416e-03	-6.59843e+00	-1.46121e+01	
213	1.735166e-03	-6.64242e+00	-1.46113e+01	
214	1.736916e-03	-6.67028e+00	-1.46099e+01	
215	1.738760e-03	-6.69953e+00	-1.46062e+01	
216	1.740859e-03	-6.73265e+00	-1.45965e+01	
217	1.742544e-03	-6.75909e+00	-1.45795e+01	
218	1.743680e-03	-6.77678e+00	-1.45286e+01	
219	1.744345e-03	-6.78695e+00	-1.43112e+01	
220	1.744728e-03	-6.79263e+00	-1.41293e+01	
221	1.745233e-03	-6.79991e+00	-1.38848e+01	
222	1.745580e-03	-6.80477e+00	-1.37173e+01	
223	1.746004e-03	-6.81054e+00	-1.35121e+01	
224	1.746650e-03	-6.81899e+00	-1.31997e+01	
225	1.747504e-03	-6.82954e+00	-1.27859e+01	
226	1.749213e-03	-6.84845e+00	-1.19574e+01	
227	1.752631e-03	-6.87759e+00	-1.02959e+01	
228	1.759467e-03	-6.90133e+00	-6.95538e+00	

Index   time            v(2)            v(5)            
--------------------------------------------------------------------------------
229	1.769467e-03	-6.85360e+00	-2.02613e+00	
230	1.779467e-03	-6.70869e+00	2.954152e+00	
231	1.789467e-03	-6.46753e+00	7.986032e+00	
232	1.799467e-03	-6.13098e+00	1.307000e+01	
233	1.806609e-03	-5.84782e+00	1.460245e+01	
234	1.815265e-03	-5.49667e+00	1.461715e+01	
235	1.822120e-03	-5.22279e+00	1.461750e+01	
236	1.829723e-03	-4.92341e+00	1.461436e+01	
237	1.838813e-03	-4.57141e+00	1.461430e+01	
238	1.848813e-03	-4.19149e+00	1.461407e+01	
239	1.858813e-03	-3.81911e+00	1.461406e+01	
240	1.868813e-03	-3.45409e+00	1.461406e+01	
241	1.878813e-03	-3.09631e+00	1.461406e+01	
242	1.888813e-03	-2.74561e+00	1.461406e+01	
243	1.898813e-03	-2.40185e+00	1.461406e+01	
244	1.908813e-03	-2.06490e+00	1.461406e+01	
245	1.918813e-03	-1.73463e+00	1.461406e+01	
246	1.928813e-03	-1.41089e+00	1.461406e+01	
247	1.938813e-03	-1.09356e+00	1.461406e+01	
248	1.948813e-03	-7.82523e-01	1.461406e+01	
249	1.958813e-03	-4.77640e-01	1.461406e+01	
250	1.968813e-03	-1.78794e-01	1.461406e+01	
251	1.978813e-03	1.141338e-01	1.461406e+01	
252	1.988813e-03	4.012611e-01	1.461406e+01	
253	1.998813e-03	6.827028e-01	1.461406e+01	
254	2.008813e-03	9.585713e-01	1.461406e+01	
255	2.018813e-03	1.228977e+00	1.461406e+01	
256	2.028813e-03	1.494028e+00	1.461406e+01	
257	2.038813e-03	1.753831e+00	1.461406e+01	
258	2.048813e-03	2.008489e+00	1.461406e+01	
259	2.058813e-03	2.258104e+00	1.461406e+01	
260	2.068813e-03	2.502777e+00	1.461406e+01	
261	2.078813e-03	2.742604e+00	1.461406e+01	
262	2.088813e-03	2.977683e+00	1.461406e+01	
263	2.098813e-03	3.208106e+00	1.461406e+01	
264	2.108813e-03	3.433967e+00	1.461406e+01	
265	2.118813e-03	3.655355e+00	1.461406e+01	
266	2.128813e-03	3.872359e+00	1.461406e+01	
267	2.138813e-03	4.085066e+00	1.461406e+01	
268	2.148813e-03	4.293561e+00	1.461406e+01	
269	2.158813e-03	4.497927e+00	1.461406e+01	
270	2.168813e-03	4.698247e+00	1.461406e+01	
271	2.178813e-03	4.894600e+00	1.461406e+01	
272	2.188813e-03	5.087064e+00	1.461406e+01	
273	2.198813e-03	5.275718e+00	1.461406e+01	
274	2.208813e-03	5.460635e+00	1.461406e+01	
275	2.218813e-03	5.641891e+00	1.461406e+01	
276	2.228813e-03	5.819558e+00	1.461406e+01	
277	2.238813e-03	5.993707e+00	1.461406e+01	
278	2.248813e-03	6.164407e+00	1.461406e+01	
279	2.258813e-03	6.331727e+00	1.461406e+01	
280	2.268813e-03	6.495733e+00	1.461406e+01	
281	2.275348e-03	6.601146e+00	1.461373e+01	
282	2.276063e-03	6.612581e+00	1.461361e+01	
283	2.277492e-03	6.635417e+00	1.461319e+01	
284	2.279265e-03	6.663661e+00	1.461185e+01	
285	2.281518e-03	6.699372e+00	1.460732e+01	
286	2.283617e-03	6.732470e+00	1.459710e+01	

Index   time            v(2)            v(5)            
--------------------------------------------------------------------------------
287	2.285307e-03	6.758949e+00	1.457660e+01	
288	2.287440e-03	6.791130e+00	1.407372e+01	
289	2.288140e-03	6.801055e+00	1.371458e+01	
290	2.289085e-03	6.813629e+00	1.322570e+01	
291	2.289677e-03	6.821029e+00	1.292086e+01	
292	2.290377e-03	6.829299e+00	1.255912e+01	
293	2.291124e-03	6.837552e+00	1.217386e+01	
294	2.291969e-03	6.846178e+00	1.173772e+01	
295	2.293213e-03	6.857516e+00	1.109565e+01	
296	2.294883e-03	6.870181e+00	1.023373e+01	
297	2.297561e-03	6.884416e+00	8.851075e+00	
298	2.301860e-03	6.891684e+00	6.632585e+00	
299	2.308892e-03	6.862605e+00	3.003481e+00	
300	2.318892e-03	6.734965e+00	-2.15341e+00	
301	2.328892e-03	6.507800e+00	-7.30391e+00	
302	2.338892e-03	6.183230e+00	-1.24456e+01	
303	2.346699e-03	5.877850e+00	-1.45974e+01	
304	2.354711e-03	5.552078e+00	-1.46171e+01	
305	2.362774e-03	5.229318e+00	-1.46148e+01	
306	2.370454e-03	4.926712e+00	-1.46140e+01	
307	2.378865e-03	4.600581e+00	-1.46139e+01	
308	2.388865e-03	4.219935e+00	-1.46139e+01	
309	2.398865e-03	3.846828e+00	-1.46138e+01	
310	2.408865e-03	3.481111e+00	-1.46138e+01	
311	2.418865e-03	3.122637e+00	-1.46137e+01	
312	2.428865e-03	2.771262e+00	-1.46137e+01	
313	2.438865e-03	2.426847e+00	-1.46136e+01	
314	2.448865e-03	2.089253e+00	-1.46136e+01	
315	2.458865e-03	1.758345e+00	-1.46135e+01	
316	2.468865e-03	1.433991e+00	-1.46135e+01	
317	2.478865e-03	1.116061e+00	-1.46134e+01	
318	2.488865e-03	8.044281e-01	-1.46134e+01	
319	2.498865e-03	4.989670e-01	-1.46133e+01	
320	2.508865e-03	1.995556e-01	-1.46133e+01	
321	2.518865e-03	-9.39257e-02	-1.46133e+01	
322	2.528865e-03	-3.81595e-01	-1.46132e+01	
323	2.538865e-03	-6.63566e-01	-1.46132e+01	
324	2.548865e-03	-9.39953e-01	-1.46131e+01	
325	2.558865e-03	-1.21087e+00	-1.46131e+01	
326	2.568865e-03	-1.47641e+00	-1.46131e+01	
327	2.578865e-03	-1.73670e+00	-1.46130e+01	
328	2.588865e-03	-1.99183e+00	-1.46130e+01	
329	2.598865e-03	-2.24191e+00	-1.46130e+01	
330	2.608865e-03	-2.48704e+00	-1.46129e+01	
331	2.618865e-03	-2.72731e+00	-1.46129e+01	
332	2.628865e-03	-2.96282e+00	-1.46128e+01	
333	2.638865e-03	-3.19367e+00	-1.46128e+01	
334	2.648865e-03	-3.41995e+00	-1.46128e+01	
335	2.658865e-03	-3.64174e+00	-1.46127e+01	
336	2.668865e-03	-3.85915e+00	-1.46127e+01	
337	2.678865e-03	-4.07224e+00	-1.46127e+01	
338	2.688865e-03	-4.28112e+00	-1.46127e+01	
339	2.698865e-03	-4.48586e+00	-1.46126e+01	
340	2.708865e-03	-4.68654e+00	-1.46126e+01	
341	2.718865e-03	-4.88325e+00	-1.46126e+01	
342	2.728865e-03	-5.07607e+00	-1.46125e+01	
343	2.738865e-03	-5.26506e+00	-1.46125e+01	
344	2.748865e-03	-5.45031e+00	-1.46125e+01	

Index   time            v(2)            v(5)            
--------------------------------------------------------------------------------
345	2.758865e-03	-5.63189e+00	-1.46125e+01	
346	2.768865e-03	-5.80988e+00	-1.46124e+01	
347	2.778865e-03	-5.98434e+00	-1.46124e+01	
348	2.788865e-03	-6.15535e+00	-1.46124e+01	
349	2.798865e-03	-6.32297e+00	-1.46124e+01	
350	2.808865e-03	-6.48726e+00	-1.46123e+01	
351	2.816780e-03	-6.61499e+00	-1.46118e+01	
352	2.820288e-03	-6.67094e+00	-1.46095e+01	
353	2.822312e-03	-6.70302e+00	-1.46053e+01	
354	2.824636e-03	-6.73966e+00	-1.45929e+01	
355	2.825863e-03	-6.75891e+00	-1.45787e+01	
356	2.826837e-03	-6.77410e+00	-1.45437e+01	
357	2.827523e-03	-6.78462e+00	-1.43735e+01	
358	2.827869e-03	-6.78982e+00	-1.42111e+01	
359	2.828357e-03	-6.79694e+00	-1.39751e+01	
360	2.828643e-03	-6.80100e+00	-1.38373e+01	
361	2.829015e-03	-6.80617e+00	-1.36572e+01	
362	2.829664e-03	-6.81485e+00	-1.33435e+01	
363	2.830482e-03	-6.82520e+00	-1.29476e+01	
364	2.832118e-03	-6.84390e+00	-1.21548e+01	
365	2.835389e-03	-6.87336e+00	-1.05652e+01	
366	2.841933e-03	-6.90059e+00	-7.36999e+00	
367	2.851933e-03	-6.86112e+00	-2.44503e+00	
368	2.861933e-03	-6.72441e+00	2.530911e+00	
369	2.871933e-03	-6.49136e+00	7.558402e+00	
370	2.881933e-03	-6.16285e+00	1.263795e+01	
371	2.889508e-03	-5.86541e+00	1.459872e+01	
372	2.897564e-03	-5.53819e+00	1.461701e+01	
373	2.905642e-03	-5.21518e+00	1.461469e+01	
374	2.913093e-03	-4.92185e+00	1.461414e+01	
375	2.921854e-03	-4.58253e+00	1.461407e+01	
376	2.931854e-03	-4.20240e+00	1.461406e+01	
377	2.941854e-03	-3.82980e+00	1.461406e+01	
378	2.951854e-03	-3.46457e+00	1.461406e+01	
379	2.961854e-03	-3.10658e+00	1.461406e+01	
380	2.971854e-03	-2.75568e+00	1.461406e+01	
381	2.981854e-03	-2.41172e+00	1.461406e+01	
382	2.991854e-03	-2.07458e+00	1.461406e+01	
383	3.001854e-03	-1.74411e+00	1.461406e+01	
384	3.011854e-03	-1.42018e+00	1.461406e+01	
385	3.021854e-03	-1.10267e+00	1.461406e+01	
386	3.031854e-03	-7.91451e-01	1.461406e+01	
387	3.041854e-03	-4.86391e-01	1.461406e+01	
388	3.051854e-03	-1.87372e-01	1.461406e+01	
389	3.061854e-03	1.057253e-01	1.461406e+01	
390	3.071854e-03	3.930191e-01	1.461406e+01	
391	3.081854e-03	6.746240e-01	1.461406e+01	
392	3.091854e-03	9.506525e-01	1.461406e+01	
393	3.101854e-03	1.221215e+00	1.461406e+01	
394	3.111854e-03	1.486420e+00	1.461406e+01	
395	3.121854e-03	1.746373e+00	1.461406e+01	
396	3.131854e-03	2.001179e+00	1.461406e+01	
397	3.141854e-03	2.250939e+00	1.461406e+01	
398	3.151854e-03	2.495754e+00	1.461406e+01	
399	3.161854e-03	2.735720e+00	1.461406e+01	
400	3.171854e-03	2.970935e+00	1.461406e+01	
401	3.181854e-03	3.201492e+00	1.461406e+01	
402	3.191854e-03	3.427483e+00	1.461406e+01	

Index   time            v(2)            v(5)            
--------------------------------------------------------------------------------
403	3.201854e-03	3.649000e+00	1.461406e+01	
404	3.211854e-03	3.866130e+00	1.461406e+01	
405	3.221854e-03	4.078960e+00	1.461406e+01	
406	3.231854e-03	4.287576e+00	1.461406e+01	
407	3.241854e-03	4.492061e+00	1.461406e+01	
408	3.251854e-03	4.692497e+00	1.461406e+01	
409	3.261854e-03	4.888963e+00	1.461406e+01	
410	3.271854e-03	5.081539e+00	1.461406e+01	
411	3.281854e-03	5.270302e+00	1.461406e+01	
412	3.291854e-03	5.455327e+00	1.461406e+01	
413	3.301854e-03	5.636688e+00	1.461406e+01	
414	3.311854e-03	5.814458e+00	1.461406e+01	
415	3.321854e-03	5.988708e+00	1.461406e+01	
416	3.331854e-03	6.159507e+00	1.461406e+01	
417	3.341854e-03	6.326924e+00	1.461406e+01	
418	3.351854e-03	6.491026e+00	1.461406e+01	
419	3.358882e-03	6.604411e+00	1.461368e+01	
420	3.359552e-03	6.615116e+00	1.461356e+01	
421	3.360890e-03	6.636497e+00	1.461314e+01	
422	3.362702e-03	6.665346e+00	1.461172e+01	
423	3.364906e-03	6.700282e+00	1.460715e+01	
424	3.367056e-03	6.734176e+00	1.459628e+01	
425	3.368523e-03	6.757162e+00	1.458049e+01	
