                                 scmitt trigger
                                 Transient Analysis  Sat Feb  5 00:35:43  2022
--------------------------------------------------------------------------------
Index   time            v(2)            v(7)            
--------------------------------------------------------------------------------
0	0.000000e+00	0.000000e+00	7.587348e-04	
1	1.000000e-07	3.769911e-03	-1.82368e-04	
2	1.007287e-07	3.797381e-03	-1.89276e-04	
3	1.021860e-07	3.852320e-03	-2.03193e-04	
4	1.051006e-07	3.962200e-03	-2.31644e-04	
5	1.109299e-07	4.181958e-03	-2.91108e-04	
6	1.225884e-07	4.621475e-03	-4.21034e-04	
7	1.459056e-07	5.500509e-03	-7.31019e-04	
8	1.925398e-07	7.258577e-03	-1.59875e-03	
9	2.542399e-07	9.584614e-03	-3.38223e-03	
10	3.262441e-07	1.229910e-02	-6.60535e-03	
11	4.009303e-07	1.511470e-02	-1.15162e-02	
12	4.898159e-07	1.846560e-02	-1.98560e-02	
13	6.059280e-07	2.284289e-02	-3.56866e-02	
14	7.560808e-07	2.850347e-02	-6.61613e-02	
15	9.309254e-07	3.509486e-02	-1.17463e-01	
16	1.118101e-06	4.215109e-02	-1.89369e-01	
17	1.289183e-06	4.860053e-02	-2.65128e-01	
18	1.466468e-06	5.528374e-02	-3.47723e-01	
19	1.705871e-06	6.430860e-02	-4.60763e-01	
20	1.941070e-06	7.317480e-02	-5.71965e-01	
21	2.408506e-06	9.079506e-02	-7.90423e-01	
22	2.832238e-06	1.067672e-01	-9.83886e-01	
23	3.295282e-06	1.242203e-01	-1.20131e+00	
24	3.642229e-06	1.372968e-01	-1.36643e+00	
25	4.165181e-06	1.570057e-01	-1.61541e+00	
26	4.738336e-06	1.786047e-01	-1.88800e+00	
27	5.884647e-06	2.217954e-01	-2.43300e+00	
28	8.177267e-06	3.081401e-01	-3.52211e+00	
29	9.332273e-06	3.516168e-01	-4.07050e+00	
30	1.032733e-05	3.890581e-01	-4.54311e+00	
31	1.091877e-05	4.113052e-01	-4.82090e+00	
32	1.133916e-05	4.271148e-01	-4.97506e+00	
33	1.186332e-05	4.468226e-01	-5.07596e+00	
34	1.228385e-05	4.626307e-01	-5.12493e+00	
35	1.276483e-05	4.807069e-01	-5.16557e+00	
36	1.367058e-05	5.147352e-01	-5.22312e+00	
37	1.509027e-05	5.680377e-01	-5.29152e+00	
38	1.785903e-05	6.718577e-01	-5.39638e+00	
39	2.339657e-05	8.788564e-01	-5.56907e+00	
40	2.842448e-05	1.065890e+00	-5.70947e+00	
41	3.175606e-05	1.189247e+00	-5.77218e+00	
42	3.563671e-05	1.332274e+00	-5.77423e+00	
43	3.855634e-05	1.439364e+00	-5.77437e+00	
44	4.172567e-05	1.555063e+00	-5.77446e+00	
45	4.734579e-05	1.758685e+00	-5.77441e+00	
46	5.656961e-05	2.088003e+00	-5.77448e+00	
47	6.656961e-05	2.437077e+00	-5.77442e+00	
48	7.656961e-05	2.776533e+00	-5.77448e+00	
49	8.656961e-05	3.105032e+00	-5.77442e+00	
50	9.656961e-05	3.421276e+00	-5.77448e+00	
51	1.065696e-04	3.724019e+00	-5.77443e+00	
52	1.165696e-04	4.012064e+00	-5.77449e+00	
53	1.265696e-04	4.284275e+00	-5.77443e+00	
54	1.365696e-04	4.539579e+00	-5.77449e+00	

Index   time            v(2)            v(7)            
--------------------------------------------------------------------------------
55	1.465696e-04	4.776967e+00	-5.77444e+00	
56	1.565696e-04	4.995502e+00	-5.77449e+00	
57	1.665696e-04	5.194322e+00	-5.77444e+00	
58	1.765696e-04	5.372643e+00	-5.77450e+00	
59	1.865696e-04	5.529760e+00	-5.77445e+00	
60	1.965696e-04	5.665054e+00	-5.77450e+00	
61	2.065696e-04	5.777990e+00	-5.77445e+00	
62	2.165696e-04	5.868124e+00	-5.77450e+00	
63	2.265696e-04	5.935098e+00	-5.77445e+00	
64	2.365696e-04	5.978650e+00	-5.77450e+00	
65	2.465696e-04	5.998606e+00	-5.77445e+00	
66	2.565696e-04	5.994889e+00	-5.77450e+00	
67	2.665696e-04	5.967513e+00	-5.77445e+00	
68	2.765696e-04	5.916585e+00	-5.77450e+00	
69	2.865696e-04	5.842308e+00	-5.77445e+00	
70	2.965696e-04	5.744973e+00	-5.77450e+00	
71	3.065696e-04	5.624966e+00	-5.77445e+00	
72	3.165696e-04	5.482760e+00	-5.77449e+00	
73	3.265696e-04	5.318916e+00	-5.77445e+00	
74	3.365696e-04	5.134080e+00	-5.77449e+00	
75	3.465696e-04	4.928982e+00	-5.77445e+00	
76	3.565696e-04	4.704433e+00	-5.77449e+00	
77	3.665696e-04	4.461316e+00	-5.77444e+00	
78	3.765696e-04	4.200593e+00	-5.77448e+00	
79	3.865696e-04	3.923293e+00	-5.77444e+00	
80	3.965696e-04	3.630508e+00	-5.77448e+00	
81	4.065696e-04	3.323396e+00	-5.77444e+00	
82	4.165696e-04	3.003168e+00	-5.77447e+00	
83	4.265696e-04	2.671088e+00	-5.77443e+00	
84	4.365696e-04	2.328466e+00	-5.77447e+00	
85	4.465696e-04	1.976655e+00	-5.77443e+00	
86	4.565696e-04	1.617043e+00	-5.77446e+00	
87	4.665696e-04	1.251049e+00	-5.77442e+00	
88	4.765696e-04	8.801176e-01	-5.77445e+00	
89	4.865696e-04	5.057130e-01	-5.77442e+00	
90	4.965696e-04	1.293125e-01	-5.77445e+00	
91	5.065696e-04	-2.47598e-01	-5.77441e+00	
92	5.165696e-04	-6.23532e-01	-5.77444e+00	
93	5.265696e-04	-9.97005e-01	-5.77441e+00	
94	5.365696e-04	-1.36654e+00	-5.77444e+00	
95	5.465696e-04	-1.73069e+00	-5.77440e+00	
96	5.565696e-04	-2.08800e+00	-5.77443e+00	
97	5.665696e-04	-2.43708e+00	-5.77439e+00	
98	5.765696e-04	-2.77653e+00	-5.77436e+00	
99	5.794190e-04	-2.87131e+00	-5.77392e+00	
100	5.821042e-04	-2.95978e+00	-5.77160e+00	
101	5.827985e-04	-2.98252e+00	-5.76628e+00	
102	5.839430e-04	-3.01988e+00	-5.73852e+00	
103	5.847310e-04	-3.04551e+00	-5.71772e+00	
104	5.859318e-04	-3.08443e+00	-5.68566e+00	
105	5.870501e-04	-3.12052e+00	-5.65521e+00	
106	5.890828e-04	-3.18571e+00	-5.59905e+00	
107	5.929229e-04	-3.30745e+00	-5.48750e+00	
108	5.983861e-04	-3.47731e+00	-5.30054e+00	
109	6.024521e-04	-3.60108e+00	-4.96529e+00	
110	6.049161e-04	-3.67494e+00	-3.87259e+00	
111	6.071504e-04	-3.74116e+00	-2.81188e+00	
112	6.088389e-04	-3.79072e+00	-2.02635e+00	

Index   time            v(2)            v(7)            
--------------------------------------------------------------------------------
113	6.106432e-04	-3.84320e+00	-1.16573e+00	
114	6.142519e-04	-3.94667e+00	5.331970e-01	
115	6.194206e-04	-4.09133e+00	2.998856e+00	
116	6.230685e-04	-4.19084e+00	4.729291e+00	
117	6.251606e-04	-4.24692e+00	5.171458e+00	
118	6.272203e-04	-4.30141e+00	5.284136e+00	
119	6.299237e-04	-4.37184e+00	5.390071e+00	
120	6.327931e-04	-4.44521e+00	5.482609e+00	
121	6.385319e-04	-4.58760e+00	5.652117e+00	
122	6.432694e-04	-4.70066e+00	5.770180e+00	
123	6.463251e-04	-4.77138e+00	5.774460e+00	
124	6.492742e-04	-4.83797e+00	5.773872e+00	
125	6.523625e-04	-4.90591e+00	5.774954e+00	
126	6.575250e-04	-5.01536e+00	5.773947e+00	
127	6.645751e-04	-5.15628e+00	5.774945e+00	
128	6.744348e-04	-5.33633e+00	5.773947e+00	
129	6.844348e-04	-5.49803e+00	5.774942e+00	
130	6.944348e-04	-5.63803e+00	5.773949e+00	
131	7.044348e-04	-5.75578e+00	5.774939e+00	
132	7.144348e-04	-5.85082e+00	5.773952e+00	
133	7.244348e-04	-5.92276e+00	5.774937e+00	
134	7.344348e-04	-5.97133e+00	5.773954e+00	
135	7.444348e-04	-5.99633e+00	5.774935e+00	
136	7.544348e-04	-5.99767e+00	5.773956e+00	
137	7.644348e-04	-5.97534e+00	5.774932e+00	
138	7.744348e-04	-5.92943e+00	5.773958e+00	
139	7.844348e-04	-5.86011e+00	5.774930e+00	
140	7.944348e-04	-5.76767e+00	5.773960e+00	
141	8.044348e-04	-5.65247e+00	5.774928e+00	
142	8.144348e-04	-5.51496e+00	5.773962e+00	
143	8.244348e-04	-5.35568e+00	5.774926e+00	
144	8.344348e-04	-5.17527e+00	5.773964e+00	
145	8.444348e-04	-4.97443e+00	5.774924e+00	
146	8.544348e-04	-4.75396e+00	5.773966e+00	
147	8.644348e-04	-4.51473e+00	5.774922e+00	
148	8.744348e-04	-4.25768e+00	5.773968e+00	
149	8.844348e-04	-3.98383e+00	5.774920e+00	
150	8.944348e-04	-3.69426e+00	5.773970e+00	
151	9.044348e-04	-3.39010e+00	5.774918e+00	
152	9.144348e-04	-3.07257e+00	5.773972e+00	
153	9.244348e-04	-2.74291e+00	5.774917e+00	
154	9.344348e-04	-2.40243e+00	5.773974e+00	
155	9.444348e-04	-2.05246e+00	5.774915e+00	
156	9.544348e-04	-1.69440e+00	5.773975e+00	
157	9.644348e-04	-1.32965e+00	5.774913e+00	
158	9.744348e-04	-9.59647e-01	5.773977e+00	
159	9.844348e-04	-5.85861e-01	5.774911e+00	
160	9.944348e-04	-2.09762e-01	5.773979e+00	
161	1.004435e-03	1.671651e-01	5.774910e+00	
162	1.014435e-03	5.434321e-01	5.773980e+00	
163	1.024435e-03	9.175544e-01	5.774908e+00	
164	1.034435e-03	1.288056e+00	5.773982e+00	
165	1.044435e-03	1.653473e+00	5.774907e+00	
166	1.054435e-03	2.012366e+00	5.773983e+00	
167	1.064435e-03	2.363316e+00	5.774905e+00	
168	1.074435e-03	2.704940e+00	5.773980e+00	
169	1.077742e-03	2.815635e+00	5.774771e+00	
170	1.079202e-03	2.864114e+00	5.773614e+00	

Index   time            v(2)            v(7)            
--------------------------------------------------------------------------------
171	1.080655e-03	2.912138e+00	5.773845e+00	
172	1.081270e-03	2.932384e+00	5.772394e+00	
173	1.082047e-03	2.957922e+00	5.771872e+00	
174	1.083113e-03	2.992797e+00	5.755392e+00	
175	1.084435e-03	3.035900e+00	5.721597e+00	
176	1.085435e-03	3.068368e+00	5.693219e+00	
177	1.086665e-03	3.108112e+00	5.659786e+00	
178	1.087799e-03	3.144608e+00	5.626858e+00	
179	1.090068e-03	3.217117e+00	5.561961e+00	
180	1.092488e-03	3.293761e+00	5.487759e+00	
181	1.096799e-03	3.428363e+00	5.343325e+00	
182	1.100657e-03	3.546724e+00	5.136612e+00	
183	1.104412e-03	3.659894e+00	3.748449e+00	
184	1.105847e-03	3.702614e+00	3.042040e+00	
185	1.107288e-03	3.745218e+00	2.358090e+00	
186	1.108809e-03	3.789835e+00	1.612020e+00	
187	1.111715e-03	3.874124e+00	2.186153e-01	
188	1.115435e-03	3.980148e+00	-1.59009e+00	
189	1.121002e-03	4.134735e+00	-4.27196e+00	
190	1.122643e-03	4.179353e+00	-4.99647e+00	
191	1.123978e-03	4.215310e+00	-5.16645e+00	
192	1.125346e-03	4.251863e+00	-5.25039e+00	
193	1.127368e-03	4.305299e+00	-5.33779e+00	
194	1.129441e-03	4.359351e+00	-5.41370e+00	
195	1.132424e-03	4.435862e+00	-5.50989e+00	
196	1.136137e-03	4.528906e+00	-5.62116e+00	
197	1.141117e-03	4.649811e+00	-5.75921e+00	
198	1.143848e-03	4.714183e+00	-5.77406e+00	
199	1.146941e-03	4.785435e+00	-5.77371e+00	
200	1.150189e-03	4.858288e+00	-5.77497e+00	
201	1.154934e-03	4.961083e+00	-5.77389e+00	
202	1.160953e-03	5.085126e+00	-5.77504e+00	
203	1.170953e-03	5.275053e+00	-5.77390e+00	
204	1.180953e-03	5.444161e+00	-5.77504e+00	
205	1.190953e-03	5.591784e+00	-5.77391e+00	
206	1.200953e-03	5.717338e+00	-5.77504e+00	
207	1.210953e-03	5.820329e+00	-5.77391e+00	
208	1.220953e-03	5.900349e+00	-5.77504e+00	
209	1.230953e-03	5.957084e+00	-5.77391e+00	
210	1.240953e-03	5.990309e+00	-5.77504e+00	
211	1.250953e-03	5.999892e+00	-5.77392e+00	
212	1.260953e-03	5.985797e+00	-5.77503e+00	
213	1.270953e-03	5.948079e+00	-5.77392e+00	
214	1.280953e-03	5.886886e+00	-5.77503e+00	
215	1.290953e-03	5.802461e+00	-5.77392e+00	
216	1.300953e-03	5.695135e+00	-5.77503e+00	
217	1.310953e-03	5.565334e+00	-5.77392e+00	
218	1.320953e-03	5.413569e+00	-5.77502e+00	
219	1.330953e-03	5.240439e+00	-5.77392e+00	
220	1.340953e-03	5.046627e+00	-5.77502e+00	
221	1.350953e-03	4.832899e+00	-5.77392e+00	
222	1.360953e-03	4.600097e+00	-5.77501e+00	
223	1.370953e-03	4.349141e+00	-5.77392e+00	
224	1.380953e-03	4.081021e+00	-5.77501e+00	
225	1.390953e-03	3.796795e+00	-5.77391e+00	
226	1.400953e-03	3.497585e+00	-5.77500e+00	
227	1.410953e-03	3.184571e+00	-5.77391e+00	
228	1.420953e-03	2.858989e+00	-5.77500e+00	

Index   time            v(2)            v(7)            
--------------------------------------------------------------------------------
229	1.430953e-03	2.522124e+00	-5.77391e+00	
230	1.440953e-03	2.175306e+00	-5.77499e+00	
231	1.450953e-03	1.819902e+00	-5.77390e+00	
232	1.460953e-03	1.457317e+00	-5.77498e+00	
233	1.470953e-03	1.088979e+00	-5.77390e+00	
234	1.480953e-03	7.163446e-01	-5.77498e+00	
235	1.490953e-03	3.408826e-01	-5.77389e+00	
236	1.500953e-03	-3.59246e-02	-5.77497e+00	
237	1.510953e-03	-4.12590e-01	-5.77389e+00	
238	1.520953e-03	-7.87627e-01	-5.77496e+00	
239	1.530953e-03	-1.15956e+00	-5.77389e+00	
240	1.540953e-03	-1.52691e+00	-5.77495e+00	
241	1.550953e-03	-1.88824e+00	-5.77388e+00	
242	1.560953e-03	-2.24211e+00	-5.77495e+00	
243	1.570953e-03	-2.58714e+00	-5.77388e+00	
244	1.574758e-03	-2.71582e+00	-5.77494e+00	
245	1.577193e-03	-2.79735e+00	-5.77382e+00	
246	1.578434e-03	-2.83864e+00	-5.77475e+00	
247	1.579612e-03	-2.87769e+00	-5.77342e+00	
248	1.580199e-03	-2.89709e+00	-5.77418e+00	
249	1.580773e-03	-2.91601e+00	-5.77281e+00	
250	1.581411e-03	-2.93702e+00	-5.77318e+00	
251	1.582092e-03	-2.95937e+00	-5.77089e+00	
252	1.583227e-03	-2.99654e+00	-5.75451e+00	
253	1.584808e-03	-3.04802e+00	-5.71290e+00	
254	1.585730e-03	-3.07791e+00	-5.68919e+00	
255	1.586882e-03	-3.11512e+00	-5.65696e+00	
256	1.588494e-03	-3.16689e+00	-5.61350e+00	
257	1.591718e-03	-3.26946e+00	-5.52036e+00	
258	1.596200e-03	-3.40983e+00	-5.38071e+00	
259	1.599731e-03	-3.51849e+00	-5.23454e+00	
260	1.602605e-03	-3.60568e+00	-4.89299e+00	
261	1.604055e-03	-3.64924e+00	-4.22821e+00	
262	1.605508e-03	-3.69256e+00	-3.55051e+00	
263	1.606696e-03	-3.72776e+00	-2.98788e+00	
264	1.607880e-03	-3.76262e+00	-2.43439e+00	
265	1.610247e-03	-3.83171e+00	-1.31473e+00	
266	1.613950e-03	-3.93808e+00	4.338230e-01	
267	1.621355e-03	-4.14438e+00	3.960869e+00	
268	1.625049e-03	-4.24395e+00	5.168079e+00	
269	1.628514e-03	-4.33527e+00	5.341420e+00	
270	1.631404e-03	-4.40987e+00	5.442042e+00	
271	1.634717e-03	-4.49361e+00	5.545744e+00	
272	1.641344e-03	-4.65521e+00	5.731535e+00	
273	1.644961e-03	-4.74003e+00	5.773534e+00	
274	1.649478e-03	-4.84251e+00	5.774161e+00	
275	1.652857e-03	-4.91662e+00	5.774670e+00	
276	1.656940e-03	-5.00322e+00	5.774190e+00	
277	1.663282e-03	-5.13119e+00	5.774691e+00	
278	1.673282e-03	-5.31633e+00	5.774198e+00	
279	1.683282e-03	-5.48049e+00	5.774691e+00	
280	1.693282e-03	-5.62302e+00	5.774198e+00	
281	1.703282e-03	-5.74336e+00	5.774690e+00	
282	1.713282e-03	-5.84103e+00	5.774199e+00	
283	1.723282e-03	-5.91565e+00	5.774690e+00	
284	1.733282e-03	-5.96693e+00	5.774199e+00	
285	1.743282e-03	-5.99466e+00	5.774689e+00	
286	1.753282e-03	-5.99872e+00	5.774200e+00	

Index   time            v(2)            v(7)            
--------------------------------------------------------------------------------
287	1.763282e-03	-5.97912e+00	5.774689e+00	
288	1.773282e-03	-5.93592e+00	5.774200e+00	
289	1.783282e-03	-5.86929e+00	5.774688e+00	
290	1.793282e-03	-5.77949e+00	5.774201e+00	
291	1.803282e-03	-5.66689e+00	5.774687e+00	
292	1.813282e-03	-5.53193e+00	5.774201e+00	
293	1.823282e-03	-5.37513e+00	5.774687e+00	
294	1.833282e-03	-5.19712e+00	5.774202e+00	
295	1.843282e-03	-4.99859e+00	5.774686e+00	
296	1.853282e-03	-4.78035e+00	5.774202e+00	
297	1.863282e-03	-4.54323e+00	5.774686e+00	
298	1.873282e-03	-4.28819e+00	5.774203e+00	
299	1.883282e-03	-4.01622e+00	5.774685e+00	
300	1.893282e-03	-3.72840e+00	5.774203e+00	
301	1.903282e-03	-3.42587e+00	5.774685e+00	
302	1.913282e-03	-3.10981e+00	5.774204e+00	
303	1.923282e-03	-2.78149e+00	5.774684e+00	
304	1.933282e-03	-2.44218e+00	5.774204e+00	
305	1.943282e-03	-2.09324e+00	5.774684e+00	
306	1.953282e-03	-1.73604e+00	5.774205e+00	
307	1.963282e-03	-1.37198e+00	5.774684e+00	
308	1.973282e-03	-1.00251e+00	5.774205e+00	
309	1.983282e-03	-6.29090e-01	5.774683e+00	
310	1.993282e-03	-2.53182e-01	5.774206e+00	
311	2.003282e-03	1.237254e-01	5.774683e+00	
312	2.013282e-03	5.001443e-01	5.774206e+00	
313	2.023282e-03	8.745893e-01	5.774682e+00	
314	2.033282e-03	1.245583e+00	5.774207e+00	
315	2.043282e-03	1.611660e+00	5.774682e+00	
316	2.053282e-03	1.971378e+00	5.774207e+00	
317	2.063282e-03	2.323315e+00	5.774681e+00	
318	2.073282e-03	2.666083e+00	5.774207e+00	
319	2.077086e-03	2.793760e+00	5.774608e+00	
320	2.078654e-03	2.845945e+00	5.773970e+00	
321	2.080215e-03	2.897634e+00	5.773911e+00	
322	2.080833e-03	2.917998e+00	5.773048e+00	
323	2.081539e-03	2.941213e+00	5.772714e+00	
324	2.082391e-03	2.969168e+00	5.769758e+00	
325	2.083415e-03	3.002661e+00	5.748880e+00	
326	2.084894e-03	3.050802e+00	5.708824e+00	
327	2.085891e-03	3.083115e+00	5.681760e+00	
328	2.087035e-03	3.120044e+00	5.649175e+00	
329	2.088699e-03	3.173443e+00	5.602260e+00	
330	2.092026e-03	3.279195e+00	5.502849e+00	
331	2.096057e-03	3.405373e+00	5.371071e+00	
332	2.100110e-03	3.530070e+00	5.181107e+00	
333	2.102299e-03	3.596459e+00	4.768431e+00	
334	2.104859e-03	3.673254e+00	3.532562e+00	
335	2.106838e-03	3.731934e+00	2.580429e+00	
336	2.108942e-03	3.793717e+00	1.560678e+00	
337	2.111225e-03	3.860014e+00	4.603442e-01	
338	2.115792e-03	3.990211e+00	-1.75014e+00	
339	2.120562e-03	4.122696e+00	-4.05398e+00	
340	2.122986e-03	4.188604e+00	-5.06011e+00	
341	2.125456e-03	4.254778e+00	-5.25466e+00	
342	2.127739e-03	4.315027e+00	-5.35161e+00	
343	2.130196e-03	4.378872e+00	-5.43821e+00	
344	2.135110e-03	4.503417e+00	-5.58931e+00	

Index   time            v(2)            v(7)            
--------------------------------------------------------------------------------
345	2.141979e-03	4.670278e+00	-5.77066e+00	
346	2.145309e-03	4.748069e+00	-5.77392e+00	
347	2.149063e-03	4.833253e+00	-5.77451e+00	
348	2.152601e-03	4.911083e+00	-5.77435e+00	
349	2.157879e-03	5.022682e+00	-5.77459e+00	
350	2.165697e-03	5.177772e+00	-5.77435e+00	
351	2.175193e-03	5.349339e+00	-5.77459e+00	
352	2.185193e-03	5.509414e+00	-5.77435e+00	
353	2.195193e-03	5.647746e+00	-5.77460e+00	
354	2.205193e-03	5.763788e+00	-5.77435e+00	
355	2.215193e-03	5.857084e+00	-5.77460e+00	
356	2.225193e-03	5.927264e+00	-5.77435e+00	
357	2.235193e-03	5.974052e+00	-5.77460e+00	
358	2.245193e-03	5.997264e+00	-5.77435e+00	
359	2.255193e-03	5.996806e+00	-5.77461e+00	
360	2.265193e-03	5.972683e+00	-5.77435e+00	
361	2.275193e-03	5.924987e+00	-5.77461e+00	
362	2.285193e-03	5.853909e+00	-5.77434e+00	
363	2.295193e-03	5.759727e+00	-5.77461e+00	
364	2.305193e-03	5.642815e+00	-5.77434e+00	
365	2.315193e-03	5.503633e+00	-5.77461e+00	
366	2.325193e-03	5.342731e+00	-5.77434e+00	
367	2.335193e-03	5.160744e+00	-5.77460e+00	
368	2.345193e-03	4.958389e+00	-5.77433e+00	
369	2.355193e-03	4.736466e+00	-5.77460e+00	
370	2.365193e-03	4.495850e+00	-5.77433e+00	
371	2.375193e-03	4.237492e+00	-5.77460e+00	
372	2.385193e-03	3.962409e+00	-5.77432e+00	
373	2.395193e-03	3.671689e+00	-5.77460e+00	
374	2.405193e-03	3.366479e+00	-5.77432e+00	
375	2.415193e-03	3.047982e+00	-5.77459e+00	
376	2.425193e-03	2.717457e+00	-5.77431e+00	
377	2.435193e-03	2.376207e+00	-5.77459e+00	
378	2.445193e-03	2.025579e+00	-5.77431e+00	
379	2.455193e-03	1.666957e+00	-5.77458e+00	
380	2.465193e-03	1.301756e+00	-5.77430e+00	
381	2.475193e-03	9.314181e-01	-5.77458e+00	
382	2.485193e-03	5.574042e-01	-5.77429e+00	
383	2.495193e-03	1.811904e-01	-5.77457e+00	
384	2.505193e-03	-1.95738e-01	-5.77429e+00	
385	2.515193e-03	-5.71895e-01	-5.77457e+00	
386	2.525193e-03	-9.45794e-01	-5.77428e+00	
387	2.535193e-03	-1.31596e+00	-5.77456e+00	
388	2.545193e-03	-1.68093e+00	-5.77427e+00	
389	2.555193e-03	-2.03927e+00	-5.77456e+00	
390	2.565193e-03	-2.38956e+00	-5.77427e+00	
391	2.575193e-03	-2.73043e+00	-5.77454e+00	
392	2.578018e-03	-2.82484e+00	-5.77411e+00	
393	2.579394e-03	-2.87047e+00	-5.77413e+00	
394	2.580571e-03	-2.90936e+00	-5.77329e+00	
395	2.581170e-03	-2.92908e+00	-5.77310e+00	
396	2.581860e-03	-2.95176e+00	-5.77176e+00	
397	2.582907e-03	-2.98606e+00	-5.76175e+00	
398	2.583976e-03	-3.02095e+00	-5.73493e+00	
399	2.584778e-03	-3.04704e+00	-5.71405e+00	
400	2.585779e-03	-3.07950e+00	-5.68698e+00	
401	2.586878e-03	-3.11498e+00	-5.65743e+00	
402	2.589076e-03	-3.18548e+00	-5.59634e+00	

Index   time            v(2)            v(7)            
--------------------------------------------------------------------------------
403	2.592249e-03	-3.28623e+00	-5.50494e+00	
404	2.598597e-03	-3.48378e+00	-5.28753e+00	
405	2.602925e-03	-3.61531e+00	-4.74947e+00	
406	2.605234e-03	-3.68442e+00	-3.67425e+00	
407	2.607360e-03	-3.74732e+00	-2.67041e+00	
408	2.609469e-03	-3.80909e+00	-1.68049e+00	
409	2.611663e-03	-3.87263e+00	-6.40321e-01	
410	2.616050e-03	-3.99749e+00	1.435491e+00	
411	2.620243e-03	-4.11396e+00	3.435296e+00	
412	2.623626e-03	-4.20587e+00	4.983364e+00	
413	2.626069e-03	-4.27104e+00	5.233486e+00	
414	2.628303e-03	-4.32978e+00	5.332066e+00	
415	2.630902e-03	-4.39703e+00	5.425996e+00	
416	2.636100e-03	-4.52799e+00	5.584781e+00	
417	2.640643e-03	-4.63849e+00	5.714308e+00	
418	2.643494e-03	-4.70592e+00	5.771226e+00	
419	2.647439e-03	-4.79672e+00	5.774683e+00	
420	2.650164e-03	-4.85773e+00	5.773906e+00	
421	2.653221e-03	-4.92447e+00	5.774960e+00	
422	2.658604e-03	-5.03758e+00	5.773926e+00	
423	2.667548e-03	-5.21269e+00	5.774962e+00	
424	2.677548e-03	-5.38897e+00	5.773928e+00	
425	2.687548e-03	-5.54397e+00	5.774960e+00	
