                                 scmitt trigger
                                 Transient Analysis  Sat Feb  5 00:36:20  2022
--------------------------------------------------------------------------------
Index   time            v(2)            v(7)            
--------------------------------------------------------------------------------
0	0.000000e+00	0.000000e+00	3.000792e+00	
1	1.000000e-07	3.769911e-03	2.999781e+00	
2	1.015397e-07	3.827956e-03	2.999765e+00	
3	1.046191e-07	3.944046e-03	2.999733e+00	
4	1.107778e-07	4.176226e-03	2.999666e+00	
5	1.230954e-07	4.640586e-03	2.999518e+00	
6	1.477304e-07	5.569305e-03	2.999162e+00	
7	1.970005e-07	7.426744e-03	2.998151e+00	
8	2.867022e-07	1.080841e-02	2.994977e+00	
9	4.179532e-07	1.575645e-02	2.986221e+00	
10	5.547231e-07	2.091253e-02	2.970324e+00	
11	7.145671e-07	2.693845e-02	2.940385e+00	
12	8.613025e-07	3.247018e-02	2.900333e+00	
13	1.011353e-06	3.812686e-02	2.847035e+00	
14	1.187148e-06	4.475401e-02	2.772892e+00	
15	1.400239e-06	5.278710e-02	2.674809e+00	
16	1.599162e-06	6.028596e-02	2.580863e+00	
17	1.829136e-06	6.895530e-02	2.471967e+00	
18	2.147816e-06	8.096828e-02	2.321004e+00	
19	2.785174e-06	1.049932e-01	2.019049e+00	
20	4.059891e-06	1.530377e-01	1.415068e+00	
21	6.609324e-06	2.490940e-01	2.067907e-01	
22	1.170819e-05	4.409904e-01	-2.21104e+00	
23	1.434266e-05	5.399740e-01	-3.46077e+00	
24	1.547132e-05	5.823368e-01	-3.99413e+00	
25	1.632237e-05	6.142607e-01	-4.39261e+00	
26	1.712624e-05	6.443988e-01	-4.77468e+00	
27	1.750070e-05	6.584319e-01	-4.93015e+00	
28	1.792756e-05	6.744247e-01	-5.03750e+00	
29	1.835612e-05	6.904763e-01	-5.09935e+00	
30	1.880690e-05	7.073546e-01	-5.14469e+00	
31	1.936772e-05	7.283451e-01	-5.18619e+00	
32	2.048936e-05	7.702987e-01	-5.25009e+00	
33	2.232132e-05	8.387379e-01	-5.32925e+00	
34	2.598523e-05	9.752737e-01	-5.45683e+00	
35	3.331307e-05	1.246723e+00	-5.67158e+00	
36	3.715960e-05	1.388191e+00	-5.77504e+00	
37	4.007382e-05	1.494835e+00	-5.78204e+00	
38	4.285229e-05	1.596045e+00	-5.78261e+00	
39	4.580543e-05	1.703083e+00	-5.78275e+00	
40	5.073106e-05	1.880294e+00	-5.78286e+00	
41	5.709043e-05	2.106399e+00	-5.78278e+00	
42	6.658919e-05	2.437751e+00	-5.78285e+00	
43	7.658919e-05	2.777188e+00	-5.78278e+00	
44	8.658919e-05	3.105663e+00	-5.78285e+00	
45	9.658919e-05	3.421883e+00	-5.78278e+00	
46	1.065892e-04	3.724597e+00	-5.78286e+00	
47	1.165892e-04	4.012613e+00	-5.78279e+00	
48	1.265892e-04	4.284792e+00	-5.78286e+00	
49	1.365892e-04	4.540061e+00	-5.78279e+00	
50	1.465892e-04	4.777413e+00	-5.78287e+00	
51	1.565892e-04	4.995911e+00	-5.78279e+00	
52	1.665892e-04	5.194691e+00	-5.78287e+00	
53	1.765892e-04	5.372971e+00	-5.78279e+00	
54	1.865892e-04	5.530046e+00	-5.78288e+00	

Index   time            v(2)            v(7)            
--------------------------------------------------------------------------------
55	1.965892e-04	5.665297e+00	-5.78280e+00	
56	2.065892e-04	5.778189e+00	-5.78288e+00	
57	2.165892e-04	5.868278e+00	-5.78280e+00	
58	2.265892e-04	5.935207e+00	-5.78288e+00	
59	2.365892e-04	5.978712e+00	-5.78280e+00	
60	2.465892e-04	5.998622e+00	-5.78288e+00	
61	2.565892e-04	5.994859e+00	-5.78280e+00	
62	2.665892e-04	5.967436e+00	-5.78288e+00	
63	2.765892e-04	5.916463e+00	-5.78279e+00	
64	2.865892e-04	5.842140e+00	-5.78288e+00	
65	2.965892e-04	5.744760e+00	-5.78279e+00	
66	3.065892e-04	5.624709e+00	-5.78288e+00	
67	3.165892e-04	5.482460e+00	-5.78279e+00	
68	3.265892e-04	5.318574e+00	-5.78288e+00	
69	3.365892e-04	5.133698e+00	-5.78279e+00	
70	3.465892e-04	4.928562e+00	-5.78288e+00	
71	3.565892e-04	4.703974e+00	-5.78278e+00	
72	3.665892e-04	4.460823e+00	-5.78288e+00	
73	3.765892e-04	4.200066e+00	-5.78278e+00	
74	3.865892e-04	3.922734e+00	-5.78287e+00	
75	3.965892e-04	3.629921e+00	-5.78277e+00	
76	4.065892e-04	3.322782e+00	-5.78287e+00	
77	4.165892e-04	3.002529e+00	-5.78277e+00	
78	4.265892e-04	2.670427e+00	-5.78287e+00	
79	4.365892e-04	2.327786e+00	-5.78276e+00	
80	4.465892e-04	1.975958e+00	-5.78286e+00	
81	4.565892e-04	1.616332e+00	-5.78276e+00	
82	4.665892e-04	1.250327e+00	-5.78286e+00	
83	4.765892e-04	8.793874e-01	-5.78275e+00	
84	4.865892e-04	5.049774e-01	-5.78285e+00	
85	4.965892e-04	1.285745e-01	-5.78274e+00	
86	5.065892e-04	-2.48336e-01	-5.78285e+00	
87	5.165892e-04	-6.24266e-01	-5.78274e+00	
88	5.265892e-04	-9.97733e-01	-5.78284e+00	
89	5.365892e-04	-1.36726e+00	-5.78273e+00	
90	5.465892e-04	-1.73139e+00	-5.78283e+00	
91	5.565892e-04	-2.08869e+00	-5.78272e+00	
92	5.665892e-04	-2.43775e+00	-5.78283e+00	
93	5.765892e-04	-2.77719e+00	-5.78272e+00	
94	5.865892e-04	-3.10566e+00	-5.78282e+00	
95	5.965892e-04	-3.42188e+00	-5.78271e+00	
96	6.065892e-04	-3.72460e+00	-5.78282e+00	
97	6.165892e-04	-4.01261e+00	-5.78271e+00	
98	6.265892e-04	-4.28479e+00	-5.78274e+00	
99	6.294426e-04	-4.35940e+00	-5.78233e+00	
100	6.314520e-04	-4.41110e+00	-5.78165e+00	
101	6.322937e-04	-4.43255e+00	-5.78075e+00	
102	6.333019e-04	-4.45808e+00	-5.77822e+00	
103	6.345507e-04	-4.48945e+00	-5.75407e+00	
104	6.363061e-04	-4.53308e+00	-5.70969e+00	
105	6.373747e-04	-4.55937e+00	-5.68121e+00	
106	6.387771e-04	-4.59356e+00	-5.64335e+00	
107	6.401449e-04	-4.62656e+00	-5.60566e+00	
108	6.425802e-04	-4.68447e+00	-5.53676e+00	
109	6.451102e-04	-4.74348e+00	-5.46127e+00	
110	6.493237e-04	-4.83907e+00	-5.31753e+00	
111	6.521278e-04	-4.90082e+00	-5.18169e+00	
112	6.553217e-04	-4.96929e+00	-4.33703e+00	

Index   time            v(2)            v(7)            
--------------------------------------------------------------------------------
113	6.565643e-04	-4.99539e+00	-3.75830e+00	
114	6.575130e-04	-5.01511e+00	-3.31524e+00	
115	6.584646e-04	-5.03472e+00	-2.87114e+00	
116	6.603678e-04	-5.07338e+00	-1.98060e+00	
117	6.641741e-04	-5.14853e+00	-1.95226e-01	
118	6.706896e-04	-5.27032e+00	2.878177e+00	
119	6.747851e-04	-5.34236e+00	4.812988e+00	
120	6.771892e-04	-5.38300e+00	5.202439e+00	
121	6.795730e-04	-5.42209e+00	5.316647e+00	
122	6.827846e-04	-5.47283e+00	5.432523e+00	
123	6.865062e-04	-5.52883e+00	5.546331e+00	
124	6.939493e-04	-5.63174e+00	5.754974e+00	
125	6.971080e-04	-5.67171e+00	5.765109e+00	
126	7.008426e-04	-5.71607e+00	5.766163e+00	
127	7.050108e-04	-5.76188e+00	5.765915e+00	
128	7.097305e-04	-5.80896e+00	5.766303e+00	
129	7.172953e-04	-5.87377e+00	5.765830e+00	
130	7.263446e-04	-5.93385e+00	5.766278e+00	
131	7.363446e-04	-5.97793e+00	5.765825e+00	
132	7.463446e-04	-5.99842e+00	5.766279e+00	
133	7.563446e-04	-5.99523e+00	5.765824e+00	
134	7.663446e-04	-5.96839e+00	5.766280e+00	
135	7.763446e-04	-5.91799e+00	5.765822e+00	
136	7.863446e-04	-5.84423e+00	5.766282e+00	
137	7.963446e-04	-5.74741e+00	5.765821e+00	
138	8.063446e-04	-5.62791e+00	5.766283e+00	
139	8.163446e-04	-5.48620e+00	5.765819e+00	
140	8.263446e-04	-5.32284e+00	5.766284e+00	
141	8.363446e-04	-5.13846e+00	5.765818e+00	
142	8.463446e-04	-4.93381e+00	5.766286e+00	
143	8.563446e-04	-4.70969e+00	5.765817e+00	
144	8.663446e-04	-4.46698e+00	5.766287e+00	
145	8.763446e-04	-4.20665e+00	5.765816e+00	
146	8.863446e-04	-3.92971e+00	5.766288e+00	
147	8.963446e-04	-3.63726e+00	5.765814e+00	
148	9.063446e-04	-3.33045e+00	5.766289e+00	
149	9.163446e-04	-3.01051e+00	5.765813e+00	
150	9.263446e-04	-2.67868e+00	5.766290e+00	
151	9.363446e-04	-2.33628e+00	5.765812e+00	
152	9.463446e-04	-1.98466e+00	5.766290e+00	
153	9.563446e-04	-1.62521e+00	5.765812e+00	
154	9.663446e-04	-1.25934e+00	5.766291e+00	
155	9.763446e-04	-8.88506e-01	5.765811e+00	
156	9.863446e-04	-5.14164e-01	5.766292e+00	
157	9.963446e-04	-1.37792e-01	5.765810e+00	
158	1.006345e-03	2.391238e-01	5.766293e+00	
159	1.016345e-03	6.150957e-01	5.765809e+00	
160	1.026345e-03	9.886401e-01	5.766293e+00	
161	1.030154e-03	1.130004e+00	5.765808e+00	
162	1.032586e-03	1.219884e+00	5.766291e+00	
163	1.033996e-03	1.271880e+00	5.765781e+00	
164	1.034883e-03	1.304550e+00	5.766233e+00	
165	1.035716e-03	1.335185e+00	5.765640e+00	
166	1.036681e-03	1.370624e+00	5.765895e+00	
167	1.037264e-03	1.392035e+00	5.765150e+00	
168	1.037796e-03	1.411515e+00	5.765309e+00	
169	1.038336e-03	1.431311e+00	5.764321e+00	
170	1.039108e-03	1.459545e+00	5.763454e+00	

Index   time            v(2)            v(7)            
--------------------------------------------------------------------------------
171	1.039905e-03	1.488654e+00	5.754618e+00	
172	1.040874e-03	1.524025e+00	5.730249e+00	
173	1.041771e-03	1.556701e+00	5.705470e+00	
174	1.042872e-03	1.596756e+00	5.675732e+00	
175	1.043928e-03	1.635086e+00	5.645802e+00	
176	1.046039e-03	1.711529e+00	5.586301e+00	
177	1.049342e-03	1.830477e+00	5.487355e+00	
178	1.055946e-03	2.065959e+00	5.243754e+00	
179	1.059688e-03	2.197800e+00	4.525114e+00	
180	1.063094e-03	2.316778e+00	2.904265e+00	
181	1.065613e-03	2.404091e+00	1.686116e+00	
182	1.068980e-03	2.519846e+00	8.044415e-02	
183	1.072834e-03	2.650942e+00	-1.77846e+00	
184	1.079401e-03	2.870724e+00	-4.90107e+00	
185	1.081924e-03	2.953857e+00	-5.22468e+00	
186	1.084439e-03	3.036022e+00	-5.33655e+00	
187	1.088139e-03	3.155498e+00	-5.46678e+00	
188	1.092407e-03	3.291219e+00	-5.59392e+00	
189	1.098545e-03	3.482175e+00	-5.76769e+00	
190	1.101304e-03	3.566378e+00	-5.78125e+00	
191	1.104629e-03	3.666368e+00	-5.78316e+00	
192	1.108079e-03	3.768467e+00	-5.78231e+00	
193	1.112714e-03	3.902828e+00	-5.78346e+00	
194	1.118926e-03	4.077686e+00	-5.78225e+00	
195	1.126956e-03	4.294459e+00	-5.78340e+00	
196	1.136956e-03	4.549089e+00	-5.78225e+00	
197	1.146956e-03	4.785765e+00	-5.78341e+00	
198	1.156956e-03	5.003554e+00	-5.78226e+00	
199	1.166956e-03	5.201596e+00	-5.78341e+00	
200	1.176956e-03	5.379111e+00	-5.78226e+00	
201	1.186956e-03	5.535396e+00	-5.78342e+00	
202	1.196956e-03	5.669835e+00	-5.78226e+00	
203	1.206956e-03	5.781899e+00	-5.78342e+00	
204	1.216956e-03	5.871143e+00	-5.78226e+00	
205	1.226956e-03	5.937217e+00	-5.78342e+00	
206	1.236956e-03	5.979860e+00	-5.78226e+00	
207	1.246956e-03	5.998903e+00	-5.78342e+00	
208	1.256956e-03	5.994270e+00	-5.78226e+00	
209	1.266956e-03	5.965982e+00	-5.78342e+00	
210	1.276956e-03	5.914148e+00	-5.78226e+00	
211	1.286956e-03	5.838974e+00	-5.78342e+00	
212	1.296956e-03	5.740756e+00	-5.78226e+00	
213	1.306956e-03	5.619881e+00	-5.78342e+00	
214	1.316956e-03	5.476828e+00	-5.78225e+00	
215	1.326956e-03	5.312160e+00	-5.78342e+00	
216	1.336956e-03	5.126528e+00	-5.78225e+00	
217	1.346956e-03	4.920663e+00	-5.78342e+00	
218	1.356956e-03	4.695379e+00	-5.78225e+00	
219	1.366956e-03	4.451565e+00	-5.78341e+00	
220	1.376956e-03	4.190182e+00	-5.78224e+00	
221	1.386956e-03	3.912262e+00	-5.78341e+00	
222	1.396956e-03	3.618902e+00	-5.78224e+00	
223	1.406956e-03	3.311261e+00	-5.78340e+00	
224	1.416956e-03	2.990551e+00	-5.78223e+00	
225	1.426956e-03	2.658039e+00	-5.78340e+00	
226	1.436956e-03	2.315036e+00	-5.78223e+00	
227	1.446956e-03	1.962898e+00	-5.78339e+00	
228	1.456956e-03	1.603013e+00	-5.78222e+00	

Index   time            v(2)            v(7)            
--------------------------------------------------------------------------------
229	1.466956e-03	1.236801e+00	-5.78339e+00	
230	1.476956e-03	8.657084e-01	-5.78222e+00	
231	1.486956e-03	4.911992e-01	-5.78338e+00	
232	1.496956e-03	1.147514e-01	-5.78221e+00	
233	1.506956e-03	-2.62149e-01	-5.78338e+00	
234	1.516956e-03	-6.38015e-01	-5.78221e+00	
235	1.526956e-03	-1.01136e+00	-5.78337e+00	
236	1.536956e-03	-1.38072e+00	-5.78220e+00	
237	1.546956e-03	-1.74463e+00	-5.78337e+00	
238	1.556956e-03	-2.10165e+00	-5.78219e+00	
239	1.566956e-03	-2.45038e+00	-5.78336e+00	
240	1.576956e-03	-2.78944e+00	-5.78219e+00	
241	1.586956e-03	-3.11748e+00	-5.78335e+00	
242	1.596956e-03	-3.43323e+00	-5.78218e+00	
243	1.606956e-03	-3.73543e+00	-5.78335e+00	
244	1.616956e-03	-4.02288e+00	-5.78218e+00	
245	1.625065e-03	-4.24438e+00	-5.78333e+00	
246	1.628046e-03	-4.32306e+00	-5.78204e+00	
247	1.629768e-03	-4.36782e+00	-5.78292e+00	
248	1.631318e-03	-4.40767e+00	-5.78111e+00	
249	1.632057e-03	-4.42653e+00	-5.78170e+00	
250	1.632884e-03	-4.44753e+00	-5.77923e+00	
251	1.634121e-03	-4.47867e+00	-5.76427e+00	
252	1.635549e-03	-4.51433e+00	-5.72839e+00	
253	1.636770e-03	-4.54452e+00	-5.69748e+00	
254	1.638115e-03	-4.57746e+00	-5.66026e+00	
255	1.639408e-03	-4.60882e+00	-5.62614e+00	
256	1.641995e-03	-4.67065e+00	-5.55251e+00	
257	1.646325e-03	-4.77139e+00	-5.42345e+00	
258	1.651322e-03	-4.88323e+00	-5.22748e+00	
259	1.656200e-03	-4.98776e+00	-3.92608e+00	
260	1.657746e-03	-5.01993e+00	-3.19064e+00	
261	1.659293e-03	-5.05164e+00	-2.48071e+00	
262	1.661018e-03	-5.08643e+00	-1.66101e+00	
263	1.663966e-03	-5.14451e+00	-2.89044e-01	
264	1.667940e-03	-5.21999e+00	1.593430e+00	
265	1.673626e-03	-5.32232e+00	4.273380e+00	
266	1.675315e-03	-5.35142e+00	5.002000e+00	
267	1.676777e-03	-5.37612e+00	5.175732e+00	
268	1.678261e-03	-5.40073e+00	5.261750e+00	
269	1.680416e-03	-5.43562e+00	5.349801e+00	
270	1.684607e-03	-5.50062e+00	5.490759e+00	
271	1.690444e-03	-5.58481e+00	5.659240e+00	
272	1.693969e-03	-5.63200e+00	5.756075e+00	
273	1.696616e-03	-5.66563e+00	5.764815e+00	
274	1.699588e-03	-5.70152e+00	5.766156e+00	
275	1.702445e-03	-5.73415e+00	5.765659e+00	
276	1.706408e-03	-5.77635e+00	5.766430e+00	
277	1.712083e-03	-5.83053e+00	5.765687e+00	
278	1.718778e-03	-5.88492e+00	5.766421e+00	
279	1.728778e-03	-5.94674e+00	5.765683e+00	
280	1.738778e-03	-5.98509e+00	5.766422e+00	
281	1.748778e-03	-5.99982e+00	5.765681e+00	
282	1.758778e-03	-5.99088e+00	5.766423e+00	
283	1.768778e-03	-5.95829e+00	5.765680e+00	
284	1.778778e-03	-5.90218e+00	5.766425e+00	
285	1.788778e-03	-5.82279e+00	5.765678e+00	
286	1.798778e-03	-5.72041e+00	5.766426e+00	

Index   time            v(2)            v(7)            
--------------------------------------------------------------------------------
287	1.808778e-03	-5.59546e+00	5.765677e+00	
288	1.818778e-03	-5.44842e+00	5.766427e+00	
289	1.828778e-03	-5.27988e+00	5.765676e+00	
290	1.838778e-03	-5.09051e+00	5.766428e+00	
291	1.848778e-03	-4.88104e+00	5.765675e+00	
292	1.858778e-03	-4.65232e+00	5.766429e+00	
293	1.868778e-03	-4.40523e+00	5.765674e+00	
294	1.878778e-03	-4.14075e+00	5.766430e+00	
295	1.888778e-03	-3.85994e+00	5.765673e+00	
296	1.898778e-03	-3.56389e+00	5.766431e+00	
297	1.908778e-03	-3.25377e+00	5.765672e+00	
298	1.918778e-03	-2.93082e+00	5.766431e+00	
299	1.928778e-03	-2.59629e+00	5.765671e+00	
300	1.938778e-03	-2.25153e+00	5.766432e+00	
301	1.948778e-03	-1.89787e+00	5.765670e+00	
302	1.958778e-03	-1.53673e+00	5.766433e+00	
303	1.968778e-03	-1.16952e+00	5.765670e+00	
304	1.978778e-03	-7.97694e-01	5.766433e+00	
305	1.988778e-03	-4.22721e-01	5.765669e+00	
306	1.998778e-03	-4.60798e-02	5.766434e+00	
307	2.008778e-03	3.307431e-01	5.765668e+00	
308	2.018778e-03	7.062608e-01	5.766435e+00	
309	2.028778e-03	1.078991e+00	5.765668e+00	
310	2.032580e-03	1.219688e+00	5.766429e+00	
311	2.035016e-03	1.309441e+00	5.765564e+00	
312	2.036166e-03	1.351734e+00	5.766160e+00	
313	2.037273e-03	1.392364e+00	5.764985e+00	
314	2.037778e-03	1.410861e+00	5.765444e+00	
315	2.038310e-03	1.430337e+00	5.764189e+00	
316	2.038950e-03	1.453754e+00	5.763938e+00	
317	2.039658e-03	1.479653e+00	5.759335e+00	
318	2.040702e-03	1.517741e+00	5.734830e+00	
319	2.041715e-03	1.554670e+00	5.706679e+00	
320	2.042724e-03	1.591384e+00	5.679826e+00	
321	2.043776e-03	1.629576e+00	5.649737e+00	
322	2.045879e-03	1.705745e+00	5.590918e+00	
323	2.049292e-03	1.828706e+00	5.488557e+00	
324	2.054701e-03	2.021803e+00	5.300266e+00	
325	2.058230e-03	2.146563e+00	5.055272e+00	
326	2.061877e-03	2.274391e+00	3.489013e+00	
327	2.063715e-03	2.338347e+00	2.589195e+00	
328	2.065541e-03	2.401576e+00	1.731326e+00	
329	2.067413e-03	2.466091e+00	8.166258e-01	
330	2.070870e-03	2.584325e+00	-8.26550e-01	
331	2.075180e-03	2.729978e+00	-2.91083e+00	
332	2.078228e-03	2.831796e+00	-4.35908e+00	
333	2.079265e-03	2.866199e+00	-4.84729e+00	
334	2.080280e-03	2.899755e+00	-5.09418e+00	
335	2.081274e-03	2.932519e+00	-5.18541e+00	
336	2.082569e-03	2.975022e+00	-5.25733e+00	
337	2.083813e-03	3.015634e+00	-5.31343e+00	
338	2.086299e-03	3.096305e+00	-5.40435e+00	
339	2.089409e-03	3.196129e+00	-5.50613e+00	
340	2.095629e-03	3.392079e+00	-5.68547e+00	
341	2.099130e-03	3.500114e+00	-5.77833e+00	
342	2.101836e-03	3.582484e+00	-5.78159e+00	
343	2.104387e-03	3.659149e+00	-5.78308e+00	
344	2.107087e-03	3.739287e+00	-5.78229e+00	

Index   time            v(2)            v(7)            
--------------------------------------------------------------------------------
345	2.112119e-03	3.885754e+00	-5.78334e+00	
346	2.118190e-03	4.057270e+00	-5.78234e+00	
347	2.127336e-03	4.304444e+00	-5.78332e+00	
348	2.137336e-03	4.558410e+00	-5.78234e+00	
349	2.147336e-03	4.794385e+00	-5.78332e+00	
350	2.157336e-03	5.011440e+00	-5.78234e+00	
351	2.167336e-03	5.208717e+00	-5.78333e+00	
352	2.177336e-03	5.385437e+00	-5.78234e+00	
353	2.187336e-03	5.540903e+00	-5.78333e+00	
354	2.197336e-03	5.674502e+00	-5.78234e+00	
355	2.207336e-03	5.785707e+00	-5.78333e+00	
356	2.217336e-03	5.874077e+00	-5.78234e+00	
357	2.227336e-03	5.939266e+00	-5.78333e+00	
358	2.237336e-03	5.981015e+00	-5.78234e+00	
359	2.247336e-03	5.999159e+00	-5.78334e+00	
360	2.257336e-03	5.993628e+00	-5.78234e+00	
361	2.267336e-03	5.964442e+00	-5.78334e+00	
362	2.277336e-03	5.911718e+00	-5.78234e+00	
363	2.287336e-03	5.835663e+00	-5.78334e+00	
364	2.297336e-03	5.736577e+00	-5.78234e+00	
365	2.307336e-03	5.614851e+00	-5.78333e+00	
366	2.317336e-03	5.470966e+00	-5.78234e+00	
367	2.327336e-03	5.305490e+00	-5.78333e+00	
368	2.337336e-03	5.119076e+00	-5.78234e+00	
369	2.347336e-03	4.912458e+00	-5.78333e+00	
370	2.357336e-03	4.686454e+00	-5.78233e+00	
371	2.367336e-03	4.441954e+00	-5.78333e+00	
372	2.377336e-03	4.179924e+00	-5.78233e+00	
373	2.387336e-03	3.901397e+00	-5.78332e+00	
374	2.397336e-03	3.607474e+00	-5.78233e+00	
375	2.407336e-03	3.299314e+00	-5.78332e+00	
376	2.417336e-03	2.978132e+00	-5.78232e+00	
377	2.427336e-03	2.645198e+00	-5.78331e+00	
378	2.437336e-03	2.301823e+00	-5.78232e+00	
379	2.447336e-03	1.949365e+00	-5.78331e+00	
380	2.457336e-03	1.589214e+00	-5.78231e+00	
381	2.467336e-03	1.222790e+00	-5.78330e+00	
382	2.477336e-03	8.515408e-01	-5.78230e+00	
383	2.487336e-03	4.769309e-01	-5.78329e+00	
384	2.497336e-03	1.004388e-01	-5.78230e+00	
385	2.507336e-03	-2.76450e-01	-5.78329e+00	
386	2.517336e-03	-6.52247e-01	-5.78229e+00	
387	2.527336e-03	-1.02547e+00	-5.78328e+00	
388	2.537336e-03	-1.39465e+00	-5.78229e+00	
389	2.547336e-03	-1.75832e+00	-5.78328e+00	
390	2.557336e-03	-2.11505e+00	-5.78228e+00	
391	2.567336e-03	-2.46344e+00	-5.78327e+00	
392	2.577336e-03	-2.80210e+00	-5.78228e+00	
393	2.587336e-03	-3.12971e+00	-5.78327e+00	
394	2.597336e-03	-3.44496e+00	-5.78227e+00	
395	2.607336e-03	-3.74662e+00	-5.78326e+00	
396	2.617336e-03	-4.03349e+00	-5.78227e+00	
397	2.624254e-03	-4.22272e+00	-5.78325e+00	
398	2.627577e-03	-4.31077e+00	-5.78217e+00	
399	2.629291e-03	-4.35546e+00	-5.78294e+00	
400	2.630931e-03	-4.39777e+00	-5.78142e+00	
401	2.631670e-03	-4.41666e+00	-5.78193e+00	
402	2.632400e-03	-4.43524e+00	-5.78020e+00	

Index   time            v(2)            v(7)            
--------------------------------------------------------------------------------
403	2.633415e-03	-4.46094e+00	-5.77787e+00	
404	2.634411e-03	-4.48594e+00	-5.75723e+00	
405	2.636182e-03	-4.53000e+00	-5.71372e+00	
406	2.637292e-03	-4.55734e+00	-5.68334e+00	
407	2.638664e-03	-4.59080e+00	-5.64720e+00	
408	2.639949e-03	-4.62185e+00	-5.61102e+00	
409	2.642161e-03	-4.67459e+00	-5.54961e+00	
410	2.644371e-03	-4.72637e+00	-5.48374e+00	
411	2.647929e-03	-4.80779e+00	-5.37058e+00	
412	2.652644e-03	-4.91203e+00	-5.14296e+00	
413	2.657134e-03	-5.00726e+00	-3.50360e+00	
414	2.658855e-03	-5.04271e+00	-2.68732e+00	
415	2.660534e-03	-5.07674e+00	-1.91338e+00	
416	2.662324e-03	-5.11238e+00	-1.06333e+00	
417	2.665904e-03	-5.18172e+00	6.087117e-01	
418	2.670930e-03	-5.27464e+00	2.991938e+00	
419	2.673884e-03	-5.32681e+00	4.377740e+00	
420	2.675122e-03	-5.34812e+00	4.935374e+00	
421	2.675835e-03	-5.36025e+00	5.084478e+00	
422	2.676632e-03	-5.37370e+00	5.164874e+00	
423	2.677417e-03	-5.38679e+00	5.214036e+00	
424	2.678243e-03	-5.40044e+00	5.259464e+00	
425	2.679896e-03	-5.42729e+00	5.328231e+00	
